
T4678 000:567 SEGGER J-Link V4.90 Log File (0000ms, 0258ms total)
T4678 000:567 DLL Compiled: Jul 28 2014 10:35:20 (0000ms, 0258ms total)
T4678 000:567 Logging started @ 2021-09-26 22:40 (0000ms, 0258ms total)
T4678 000:567 JLINK_SetWarnOutHandler(...) (0000ms, 0258ms total)
T4678 000:567 JLINK_OpenEx(...)
Firmware: J-Link ARM-OB STM32 compiled Aug 22 2012 19:52:04
Hardware: V7.00
S/N: 18042910
Feature(s): RDI,FlashDL,FlashBP,JFlash,GDBFull  returns O.K. (0259ms, 0517ms total)
T4678 000:826 JLINK_SetErrorOutHandler(...) (0000ms, 0517ms total)
T4678 000:826 JLINK_ExecCommand("ProjectFile = "C:\Users\FENG\Documents\GitHub\QAV280\QAV280FLY103V100R100_CODE_20210124\JLinkSettings.ini"", ...)Device "STM32F103C8" selected (64 KB flash, 20 KB RAM).  returns 0x00 (0008ms, 0525ms total)
T4678 000:839 JLINK_ExecCommand("Device = STM32F103C8", ...)Device "STM32F103C8" selected (64 KB flash, 20 KB RAM).  returns 0x00 (0006ms, 0531ms total)
T4678 000:845 JLINK_ExecCommand("DisableConnectionTimeout", ...)  returns 0x01 (0000ms, 0531ms total)
T4678 000:845 JLINK_GetHardwareVersion()  returns 0x11170 (0000ms, 0531ms total)
T4678 000:845 JLINK_GetDLLVersion()  returns 49000 (0000ms, 0531ms total)
T4678 000:845 JLINK_GetFirmwareString(...) (0000ms, 0531ms total)
T4678 000:853 JLINK_GetDLLVersion()  returns 49000 (0000ms, 0531ms total)
T4678 000:853 JLINK_GetCompileDateTime() (0000ms, 0531ms total)
T4678 000:855 JLINK_GetFirmwareString(...) (0000ms, 0531ms total)
T4678 000:856 JLINK_GetHardwareVersion()  returns 0x11170 (0000ms, 0531ms total)
T4678 000:862 JLINK_TIF_Select(JLINKARM_TIF_SWD)  returns 0x00 (0001ms, 0532ms total)
T4678 000:863 JLINK_SetSpeed(50000) (0000ms, 0532ms total)
T4678 000:863 JLINK_GetId() >0x108 TIF>Found SWD-DP with ID 0x1BA01477 >0x0D TIF> >0x28 TIF> >0x0D TIF> >0x28 TIF> >0x0D TIF> >0x21 TIF> >0x0D TIF> >0x28 TIF> >0x0D TIF> >0x28 TIF> >0x0D TIF> >0x28 TIF> >0x0D TIF> >0x21 TIF> >0x0D TIF> >0x21 TIF> >0x0D TIF> >0x28 TIF> >0x0D TIF> >0x21 TIF> >0x0D TIF> >0x21 TIF> >0x108 TIF>Found SWD-DP with ID 0x1BA01477 >0x0D TIF> >0x21 TIF> >0x0D TIF> >0x28 TIF> >0x0D TIF> >0x28 TIF> >0x0D TIF> >0x21 TIF> >0x0D TIF> >0x28 TIF> >0x0D TIF> >0x21 TIF> >0x0D TIF> >0x21 TIF>
 >0x0D TIF> >0x21 TIF> >0x0D TIF> >0x21 TIF> >0x0D TIF> >0x28 TIF> >0x0D TIF> >0x28 TIF> >0x0D TIF> >0x21 TIF> >0x0D TIF> >0x28 TIF> >0x0D TIF> >0x28 TIF> >0x0D TIF> >0x28 TIF> >0x0D TIF> >0x21 TIF> >0x0D TIF> >0x21 TIF> >0x0D TIF> >0x28 TIF> >0x0D TIF> >0x21 TIF> >0x0D TIF> >0x21 TIF>Found Cortex-M3 r1p1, Little endian. -- CPU_WriteMem(4 bytes @ 0xE0002000) -- CPU_ReadMem(4 bytes @ 0xE000EDF0) -- CPU_ReadMem(4 bytes @ 0xE0002000)FPUnit: 6 code (BP) slots and 2 literal slots
 -- CPU_ReadMem(4 bytes @ 0xE000EDFC) -- CPU_ReadMem(4 bytes @ 0xE0001000) -- CPU_WriteMem(4 bytes @ 0xE0001000) -- CPU_ReadMem(4 bytes @ 0xE00FF010)TPIU fitted. -- CPU_ReadMem(4 bytes @ 0xE00FF014) -- CPU_ReadMem(4 bytes @ 0xE00FF018) >0x0D TIF> >0x21 TIF>  returns 0x1BA01477 (0025ms, 0557ms total)
T4678 000:888 JLINK_GetDLLVersion()  returns 49000 (0000ms, 0557ms total)
T4678 000:888 JLINK_CORE_GetFound()  returns 0x30000FF (0000ms, 0557ms total)
T4678 000:889 JLINK_GetDebugInfo(0x100) -- Value=0xE00FF003  returns 0x00 (0000ms, 0557ms total)
T4678 000:889 JLINK_GetDebugInfo(0x101)  returns 0xFFFFFFFF (0000ms, 0557ms total)
T4678 000:889 JLINK_ReadMem (0xE0041FF0, 0x0010 Bytes, ...) -- CPU is running -- CPU_ReadMem(16 bytes @ 0xE0041FF0) - Data: 00 00 00 00 00 00 00 00 00 00 00 00 00 00 00 00  returns 0x00 (0001ms, 0558ms total)
T4678 000:890 JLINK_GetDebugInfo(0x102)  returns 0xFFFFFFFF (0000ms, 0558ms total)
T4678 000:890 JLINK_GetDebugInfo(0x103)  returns 0xFFFFFFFF (0000ms, 0558ms total)
T4678 000:890 JLINK_ReadMem (0xE0040FF0, 0x0010 Bytes, ...) -- CPU is running -- CPU_ReadMem(16 bytes @ 0xE0040FF0) - Data: 0D 00 00 00 90 00 00 00 05 00 00 00 B1 00 00 00  returns 0x00 (0001ms, 0559ms total)
T4678 000:891 JLINK_GetDebugInfo(0x104)  returns 0xFFFFFFFF (0000ms, 0559ms total)
T4678 000:891 JLINK_GetDebugInfo(0x105)  returns 0xFFFFFFFF (0000ms, 0559ms total)
T4678 000:891 JLINK_GetDebugInfo(0x106)  returns 0xFFFFFFFF (0000ms, 0559ms total)
T4678 000:891 JLINK_GetDebugInfo(0x107)  returns 0xFFFFFFFF (0000ms, 0559ms total)
T4678 000:891 JLINK_GetDebugInfo(0x10C)  returns 0xFFFFFFFF (0000ms, 0559ms total)
T4678 000:891 JLINK_ReadMemU32(0xE000ED00, 0x0001 Items, ...) -- CPU is running -- CPU_ReadMem(4 bytes @ 0xE000ED00) - Data: 31 C2 1F 41  returns 0x01 (0000ms, 0559ms total)
T4678 000:891 JLINK_SetResetType(JLINKARM_RESET_TYPE_NORMAL)  returns JLINKARM_RESET_TYPE_NORMAL (0000ms, 0559ms total)
T4678 000:891 JLINK_Reset() -- CPU is running -- CPU_WriteMem(4 bytes @ 0xE000EDF0) -- CPU is running -- CPU_WriteMem(4 bytes @ 0xE000EDFC) >0x35 TIF> -- CPU is running -- CPU_WriteMem(4 bytes @ 0xE000ED0C) -- CPU is running -- CPU_ReadMem(4 bytes @ 0xE000EDF0) -- CPU is running -- CPU_ReadMem(4 bytes @ 0xE000EDF0) -- CPU is running -- CPU_WriteMem(4 bytes @ 0xE000EDF0) -- CPU is running -- CPU_WriteMem(4 bytes @ 0xE000EDFC) -- CPU is running -- CPU_ReadMem(4 bytes @ 0xE000EDF0)
 -- CPU_WriteMem(4 bytes @ 0xE0002000) -- CPU_ReadMem(4 bytes @ 0xE000EDFC) -- CPU_ReadMem(4 bytes @ 0xE0001000) (0018ms, 0577ms total)
T4678 000:909 JLINK_Halt()  returns 0x00 (0000ms, 0577ms total)
T4678 000:909 JLINK_IsHalted()  returns TRUE (0000ms, 0577ms total)
T4678 000:909 JLINK_ReadMemU32(0xE000EDF0, 0x0001 Items, ...) -- CPU_ReadMem(4 bytes @ 0xE000EDF0) - Data: 03 00 03 00  returns 0x01 (0001ms, 0578ms total)
T4678 000:910 JLINK_WriteU32(0xE000EDF0, 0xA05F0003) -- CPU_WriteMem(4 bytes @ 0xE000EDF0)  returns 0x00 (0000ms, 0578ms total)
T4678 000:910 JLINK_WriteU32(0xE000EDFC, 0x01000000) -- CPU_WriteMem(4 bytes @ 0xE000EDFC)  returns 0x00 (0001ms, 0579ms total)
T4678 000:917 JLINK_GetHWStatus(...)  returns 0x00 (0000ms, 0579ms total)
T4678 000:921 JLINK_GetNumBPUnits(Type = 0xFFFFFF00)  returns 0x06 (0000ms, 0579ms total)
T4678 000:921 JLINK_GetNumBPUnits(Type = 0xF0)  returns 0x2000 (0000ms, 0579ms total)
T4678 000:921 JLINK_GetNumWPUnits()  returns 0x04 (0000ms, 0579ms total)
T4678 000:926 JLINK_GetSpeed()  returns 0xFA0 (0000ms, 0579ms total)
T4678 000:931 JLINK_ReadMemU32(0xE000E004, 0x0001 Items, ...) -- CPU_ReadMem(4 bytes @ 0xE000E004) - Data: 01 00 00 00  returns 0x01 (0000ms, 0579ms total)
T4678 000:931 JLINK_ReadMemU32(0xE000E004, 0x0001 Items, ...) -- CPU_ReadMem(4 bytes @ 0xE000E004) - Data: 01 00 00 00  returns 0x01 (0001ms, 0580ms total)
T4678 000:932 JLINK_WriteMem(0xE0001000, 0x001C Bytes, ...) - Data: 01 00 00 00 00 00 00 00 00 00 00 00 00 00 00 00 ... -- CPU_WriteMem(28 bytes @ 0xE0001000)  returns 0x1C (0000ms, 0580ms total)
T4678 000:932 JLINK_ReadMem (0xE0001000, 0x001C Bytes, ...) -- CPU_ReadMem(28 bytes @ 0xE0001000) - Data: 01 00 00 40 00 00 00 00 00 00 00 00 00 00 00 00 ...  returns 0x00 (0001ms, 0581ms total)
T4678 000:933 JLINK_Halt()  returns 0x00 (0000ms, 0581ms total)
T4678 000:933 JLINK_IsHalted()  returns TRUE (0000ms, 0581ms total)
T4678 000:935 JLINK_WriteMem(0x20000000, 0x0164 Bytes, ...) - Data: 00 BE 0A E0 0D 78 2D 06 68 40 08 24 40 00 00 D3 ... -- CPU_WriteMem(356 bytes @ 0x20000000)  returns 0x164 (0004ms, 0585ms total)
T4678 000:939 JLINK_WriteReg(R0, 0x08000000)  returns 0x00 (0000ms, 0585ms total)
T4678 000:939 JLINK_WriteReg(R1, 0x007A1200)  returns 0x00 (0000ms, 0585ms total)
T4678 000:939 JLINK_WriteReg(R2, 0x00000001)  returns 0x00 (0000ms, 0585ms total)
T4678 000:939 JLINK_WriteReg(R3, 0x00000000)  returns 0x00 (0000ms, 0585ms total)
T4678 000:939 JLINK_WriteReg(R4, 0x00000000)  returns 0x00 (0000ms, 0585ms total)
T4678 000:939 JLINK_WriteReg(R5, 0x00000000)  returns 0x00 (0000ms, 0585ms total)
T4678 000:939 JLINK_WriteReg(R6, 0x00000000)  returns 0x00 (0000ms, 0585ms total)
T4678 000:939 JLINK_WriteReg(R7, 0x00000000)  returns 0x00 (0000ms, 0585ms total)
T4678 000:939 JLINK_WriteReg(R8, 0x00000000)  returns 0x00 (0000ms, 0585ms total)
T4678 000:939 JLINK_WriteReg(R9, 0x20000160)  returns 0x00 (0000ms, 0585ms total)
T4678 000:939 JLINK_WriteReg(R10, 0x00000000)  returns 0x00 (0000ms, 0585ms total)
T4678 000:939 JLINK_WriteReg(R11, 0x00000000)  returns 0x00 (0000ms, 0585ms total)
T4678 000:939 JLINK_WriteReg(R12, 0x00000000)  returns 0x00 (0000ms, 0585ms total)
T4678 000:939 JLINK_WriteReg(R13 (SP), 0x20001000)  returns 0x00 (0000ms, 0585ms total)
T4678 000:939 JLINK_WriteReg(R14, 0x20000001)  returns 0x00 (0000ms, 0585ms total)
T4678 000:939 JLINK_WriteReg(R15 (PC), 0x20000038)  returns 0x00 (0000ms, 0585ms total)
T4678 000:939 JLINK_WriteReg(XPSR, 0x01000000)  returns 0x00 (0000ms, 0585ms total)
T4678 000:939 JLINK_WriteReg(MSP, 0x20001000)  returns 0x00 (0000ms, 0585ms total)
T4678 000:939 JLINK_WriteReg(PSP, 0x20001000)  returns 0x00 (0000ms, 0585ms total)
T4678 000:939 JLINK_WriteReg(CFBP, 0x00000000)  returns 0x00 (0000ms, 0585ms total)
T4678 000:939 JLINK_SetBPEx(Addr = 0x20000000, Type = 0xFFFFFFF2) -- CPU_ReadMem(2 bytes @ 0x20000000)  returns 0x00000001 (0001ms, 0586ms total)
T4678 000:940 JLINK_Go() -- CPU_WriteMem(2 bytes @ 0x20000000) -- CPU_WriteMem(4 bytes @ 0xE0002008) -- CPU_WriteMem(4 bytes @ 0xE000200C) -- CPU_WriteMem(4 bytes @ 0xE0002010) -- CPU_WriteMem(4 bytes @ 0xE0002014) -- CPU_WriteMem(4 bytes @ 0xE0002018) -- CPU_WriteMem(4 bytes @ 0xE000201C) -- CPU_WriteMem(4 bytes @ 0xE0001004) (0006ms, 0592ms total)
T4678 000:946 JLINK_IsHalted() -- CPU_ReadMem(2 bytes @ 0x20000000)  returns TRUE (0004ms, 0596ms total)
T4678 000:950 JLINK_ReadReg(R15 (PC))  returns 0x20000000 (0000ms, 0592ms total)
T4678 000:950 JLINK_ClrBPEx(BPHandle = 0x00000001)  returns 0x00 (0000ms, 0592ms total)
T4678 000:950 JLINK_ReadReg(R0)  returns 0x00000000 (0000ms, 0592ms total)
T4678 000:950 JLINK_WriteReg(R0, 0x08000000)  returns 0x00 (0000ms, 0592ms total)
T4678 000:950 JLINK_WriteReg(R1, 0x007A1200)  returns 0x00 (0000ms, 0592ms total)
T4678 000:950 JLINK_WriteReg(R2, 0x00000001)  returns 0x00 (0000ms, 0592ms total)
T4678 000:950 JLINK_WriteReg(R3, 0x00000000)  returns 0x00 (0000ms, 0592ms total)
T4678 000:950 JLINK_WriteReg(R4, 0x00000000)  returns 0x00 (0000ms, 0592ms total)
T4678 000:950 JLINK_WriteReg(R5, 0x00000000)  returns 0x00 (0000ms, 0592ms total)
T4678 000:950 JLINK_WriteReg(R6, 0x00000000)  returns 0x00 (0000ms, 0592ms total)
T4678 000:950 JLINK_WriteReg(R7, 0x00000000)  returns 0x00 (0000ms, 0592ms total)
T4678 000:950 JLINK_WriteReg(R8, 0x00000000)  returns 0x00 (0000ms, 0592ms total)
T4678 000:950 JLINK_WriteReg(R9, 0x20000160)  returns 0x00 (0000ms, 0592ms total)
T4678 000:950 JLINK_WriteReg(R10, 0x00000000)  returns 0x00 (0000ms, 0592ms total)
T4678 000:950 JLINK_WriteReg(R11, 0x00000000)  returns 0x00 (0000ms, 0592ms total)
T4678 000:950 JLINK_WriteReg(R12, 0x00000000)  returns 0x00 (0000ms, 0592ms total)
T4678 000:950 JLINK_WriteReg(R13 (SP), 0x20001000)  returns 0x00 (0000ms, 0592ms total)
T4678 000:950 JLINK_WriteReg(R14, 0x20000001)  returns 0x00 (0000ms, 0592ms total)
T4678 000:950 JLINK_WriteReg(R15 (PC), 0x2000007C)  returns 0x00 (0000ms, 0592ms total)
T4678 000:950 JLINK_WriteReg(XPSR, 0x01000000)  returns 0x00 (0000ms, 0592ms total)
T4678 000:950 JLINK_WriteReg(MSP, 0x20001000)  returns 0x00 (0000ms, 0592ms total)
T4678 000:950 JLINK_WriteReg(PSP, 0x20001000)  returns 0x00 (0000ms, 0592ms total)
T4678 000:950 JLINK_WriteReg(CFBP, 0x00000000)  returns 0x00 (0000ms, 0592ms total)
T4678 000:950 JLINK_SetBPEx(Addr = 0x20000000, Type = 0xFFFFFFF2)  returns 0x00000002 (0000ms, 0592ms total)
T4678 000:950 JLINK_Go() (0001ms, 0593ms total)
T4678 000:952 JLINK_IsHalted()  returns FALSE (0000ms, 0594ms total)
T4678 000:993 JLINK_IsHalted() -- CPU_ReadMem(2 bytes @ 0x20000000)  returns TRUE (0003ms, 0597ms total)
T4678 000:996 JLINK_ReadReg(R15 (PC))  returns 0x20000000 (0000ms, 0594ms total)
T4678 000:996 JLINK_ClrBPEx(BPHandle = 0x00000002)  returns 0x00 (0000ms, 0594ms total)
T4678 000:996 JLINK_ReadReg(R0)  returns 0x00000000 (0000ms, 0594ms total)
T4678 001:047 JLINK_WriteReg(R0, 0x00000001)  returns 0x00 (0000ms, 0594ms total)
T4678 001:047 JLINK_WriteReg(R1, 0x007A1200)  returns 0x00 (0000ms, 0594ms total)
T4678 001:047 JLINK_WriteReg(R2, 0x00000001)  returns 0x00 (0000ms, 0594ms total)
T4678 001:047 JLINK_WriteReg(R3, 0x00000000)  returns 0x00 (0000ms, 0594ms total)
T4678 001:047 JLINK_WriteReg(R4, 0x00000000)  returns 0x00 (0000ms, 0594ms total)
T4678 001:047 JLINK_WriteReg(R5, 0x00000000)  returns 0x00 (0000ms, 0594ms total)
T4678 001:047 JLINK_WriteReg(R6, 0x00000000)  returns 0x00 (0000ms, 0594ms total)
T4678 001:047 JLINK_WriteReg(R7, 0x00000000)  returns 0x00 (0000ms, 0594ms total)
T4678 001:047 JLINK_WriteReg(R8, 0x00000000)  returns 0x00 (0000ms, 0594ms total)
T4678 001:047 JLINK_WriteReg(R9, 0x20000160)  returns 0x00 (0000ms, 0594ms total)
T4678 001:047 JLINK_WriteReg(R10, 0x00000000)  returns 0x00 (0000ms, 0594ms total)
T4678 001:047 JLINK_WriteReg(R11, 0x00000000)  returns 0x00 (0000ms, 0594ms total)
T4678 001:047 JLINK_WriteReg(R12, 0x00000000)  returns 0x00 (0000ms, 0594ms total)
T4678 001:047 JLINK_WriteReg(R13 (SP), 0x20001000)  returns 0x00 (0000ms, 0594ms total)
T4678 001:047 JLINK_WriteReg(R14, 0x20000001)  returns 0x00 (0000ms, 0594ms total)
T4678 001:047 JLINK_WriteReg(R15 (PC), 0x2000006A)  returns 0x00 (0000ms, 0594ms total)
T4678 001:047 JLINK_WriteReg(XPSR, 0x01000000)  returns 0x00 (0000ms, 0594ms total)
T4678 001:047 JLINK_WriteReg(MSP, 0x20001000)  returns 0x00 (0000ms, 0594ms total)
T4678 001:047 JLINK_WriteReg(PSP, 0x20001000)  returns 0x00 (0000ms, 0594ms total)
T4678 001:047 JLINK_WriteReg(CFBP, 0x00000000)  returns 0x00 (0000ms, 0594ms total)
T4678 001:047 JLINK_SetBPEx(Addr = 0x20000000, Type = 0xFFFFFFF2)  returns 0x00000003 (0000ms, 0594ms total)
T4678 001:047 JLINK_Go() (0002ms, 0596ms total)
T4678 001:049 JLINK_IsHalted() -- CPU_ReadMem(2 bytes @ 0x20000000)  returns TRUE (0003ms, 0599ms total)
T4678 001:052 JLINK_ReadReg(R15 (PC))  returns 0x20000000 (0000ms, 0596ms total)
T4678 001:052 JLINK_ClrBPEx(BPHandle = 0x00000003)  returns 0x00 (0000ms, 0596ms total)
T4678 001:052 JLINK_ReadReg(R0)  returns 0x00000000 (0000ms, 0596ms total)
T4678 001:056 JLINK_WriteMem(0x20000000, 0x0164 Bytes, ...) - Data: 00 BE 0A E0 0D 78 2D 06 68 40 08 24 40 00 00 D3 ... -- CPU_WriteMem(356 bytes @ 0x20000000)  returns 0x164 (0004ms, 0600ms total)
T4678 001:060 JLINK_WriteReg(R0, 0x08000000)  returns 0x00 (0000ms, 0600ms total)
T4678 001:060 JLINK_WriteReg(R1, 0x007A1200)  returns 0x00 (0000ms, 0600ms total)
T4678 001:060 JLINK_WriteReg(R2, 0x00000002)  returns 0x00 (0000ms, 0600ms total)
T4678 001:060 JLINK_WriteReg(R3, 0x00000000)  returns 0x00 (0000ms, 0600ms total)
T4678 001:060 JLINK_WriteReg(R4, 0x00000000)  returns 0x00 (0000ms, 0600ms total)
T4678 001:060 JLINK_WriteReg(R5, 0x00000000)  returns 0x00 (0000ms, 0600ms total)
T4678 001:060 JLINK_WriteReg(R6, 0x00000000)  returns 0x00 (0000ms, 0600ms total)
T4678 001:060 JLINK_WriteReg(R7, 0x00000000)  returns 0x00 (0000ms, 0600ms total)
T4678 001:060 JLINK_WriteReg(R8, 0x00000000)  returns 0x00 (0000ms, 0600ms total)
T4678 001:060 JLINK_WriteReg(R9, 0x20000160)  returns 0x00 (0001ms, 0601ms total)
T4678 001:061 JLINK_WriteReg(R10, 0x00000000)  returns 0x00 (0000ms, 0601ms total)
T4678 001:061 JLINK_WriteReg(R11, 0x00000000)  returns 0x00 (0000ms, 0601ms total)
T4678 001:061 JLINK_WriteReg(R12, 0x00000000)  returns 0x00 (0000ms, 0601ms total)
T4678 001:061 JLINK_WriteReg(R13 (SP), 0x20001000)  returns 0x00 (0000ms, 0601ms total)
T4678 001:061 JLINK_WriteReg(R14, 0x20000001)  returns 0x00 (0000ms, 0601ms total)
T4678 001:061 JLINK_WriteReg(R15 (PC), 0x20000038)  returns 0x00 (0000ms, 0601ms total)
T4678 001:061 JLINK_WriteReg(XPSR, 0x01000000)  returns 0x00 (0000ms, 0601ms total)
T4678 001:061 JLINK_WriteReg(MSP, 0x20001000)  returns 0x00 (0000ms, 0601ms total)
T4678 001:061 JLINK_WriteReg(PSP, 0x20001000)  returns 0x00 (0000ms, 0601ms total)
T4678 001:061 JLINK_WriteReg(CFBP, 0x00000000)  returns 0x00 (0000ms, 0601ms total)
T4678 001:061 JLINK_SetBPEx(Addr = 0x20000000, Type = 0xFFFFFFF2) -- CPU_ReadMem(2 bytes @ 0x20000000)  returns 0x00000004 (0000ms, 0601ms total)
T4678 001:061 JLINK_Go() -- CPU_WriteMem(2 bytes @ 0x20000000) (0002ms, 0603ms total)
T4678 001:063 JLINK_IsHalted() -- CPU_ReadMem(2 bytes @ 0x20000000)  returns TRUE (0004ms, 0607ms total)
T4678 001:067 JLINK_ReadReg(R15 (PC))  returns 0x20000000 (0000ms, 0603ms total)
T4678 001:067 JLINK_ClrBPEx(BPHandle = 0x00000004)  returns 0x00 (0000ms, 0603ms total)
T4678 001:067 JLINK_ReadReg(R0)  returns 0x00000000 (0000ms, 0603ms total)
T4678 001:067 JLINK_WriteMem(0x20000164, 0x0400 Bytes, ...) - Data: 78 16 00 20 FD 6E 00 08 81 02 00 08 83 02 00 08 ... -- CPU_WriteMem(1024 bytes @ 0x20000164)  returns 0x400 (0013ms, 0616ms total)
T4678 001:080 JLINK_WriteReg(R0, 0x08000000)  returns 0x00 (0000ms, 0616ms total)
T4678 001:080 JLINK_WriteReg(R1, 0x00000400)  returns 0x00 (0000ms, 0616ms total)
T4678 001:080 JLINK_WriteReg(R2, 0x20000164)  returns 0x00 (0000ms, 0616ms total)
T4678 001:080 JLINK_WriteReg(R3, 0x00000000)  returns 0x00 (0000ms, 0616ms total)
T4678 001:080 JLINK_WriteReg(R4, 0x00000000)  returns 0x00 (0000ms, 0616ms total)
T4678 001:080 JLINK_WriteReg(R5, 0x00000000)  returns 0x00 (0000ms, 0616ms total)
T4678 001:080 JLINK_WriteReg(R6, 0x00000000)  returns 0x00 (0000ms, 0616ms total)
T4678 001:080 JLINK_WriteReg(R7, 0x00000000)  returns 0x00 (0000ms, 0616ms total)
T4678 001:080 JLINK_WriteReg(R8, 0x00000000)  returns 0x00 (0000ms, 0616ms total)
T4678 001:080 JLINK_WriteReg(R9, 0x20000160)  returns 0x00 (0000ms, 0616ms total)
T4678 001:080 JLINK_WriteReg(R10, 0x00000000)  returns 0x00 (0000ms, 0616ms total)
T4678 001:080 JLINK_WriteReg(R11, 0x00000000)  returns 0x00 (0000ms, 0616ms total)
T4678 001:080 JLINK_WriteReg(R12, 0x00000000)  returns 0x00 (0000ms, 0616ms total)
T4678 001:080 JLINK_WriteReg(R13 (SP), 0x20001000)  returns 0x00 (0000ms, 0616ms total)
T4678 001:080 JLINK_WriteReg(R14, 0x20000001)  returns 0x00 (0000ms, 0616ms total)
T4678 001:080 JLINK_WriteReg(R15 (PC), 0x200000F4)  returns 0x00 (0000ms, 0616ms total)
T4678 001:080 JLINK_WriteReg(XPSR, 0x01000000)  returns 0x00 (0000ms, 0616ms total)
T4678 001:080 JLINK_WriteReg(MSP, 0x20001000)  returns 0x00 (0000ms, 0616ms total)
T4678 001:080 JLINK_WriteReg(PSP, 0x20001000)  returns 0x00 (0000ms, 0616ms total)
T4678 001:080 JLINK_WriteReg(CFBP, 0x00000000)  returns 0x00 (0000ms, 0616ms total)
T4678 001:080 JLINK_SetBPEx(Addr = 0x20000000, Type = 0xFFFFFFF2)  returns 0x00000005 (0000ms, 0616ms total)
T4678 001:080 JLINK_Go() (0001ms, 0617ms total)
T4678 001:081 JLINK_IsHalted()  returns FALSE (0001ms, 0618ms total)
T4678 001:105 JLINK_IsHalted()  returns FALSE (0000ms, 0617ms total)
T4678 001:107 JLINK_IsHalted()  returns FALSE (0000ms, 0617ms total)
T4678 001:109 JLINK_IsHalted()  returns FALSE (0000ms, 0617ms total)
T4678 001:111 JLINK_IsHalted()  returns FALSE (0000ms, 0617ms total)
T4678 001:113 JLINK_IsHalted() -- CPU_ReadMem(2 bytes @ 0x20000000)  returns TRUE (0003ms, 0620ms total)
T4678 001:116 JLINK_ReadReg(R15 (PC))  returns 0x20000000 (0000ms, 0617ms total)
T4678 001:116 JLINK_ClrBPEx(BPHandle = 0x00000005)  returns 0x00 (0000ms, 0617ms total)
T4678 001:116 JLINK_ReadReg(R0)  returns 0x00000000 (0000ms, 0617ms total)
T4678 001:116 JLINK_WriteMem(0x20000164, 0x0400 Bytes, ...) - Data: 06 F0 7F FF 00 28 FA D0 00 20 06 F0 DC FF 00 20 ... -- CPU_WriteMem(1024 bytes @ 0x20000164)  returns 0x400 (0013ms, 0630ms total)
T4678 001:129 JLINK_WriteReg(R0, 0x08000400)  returns 0x00 (0000ms, 0630ms total)
T4678 001:129 JLINK_WriteReg(R1, 0x00000400)  returns 0x00 (0000ms, 0630ms total)
T4678 001:129 JLINK_WriteReg(R2, 0x20000164)  returns 0x00 (0000ms, 0630ms total)
T4678 001:129 JLINK_WriteReg(R3, 0x00000000)  returns 0x00 (0000ms, 0630ms total)
T4678 001:129 JLINK_WriteReg(R4, 0x00000000)  returns 0x00 (0000ms, 0630ms total)
T4678 001:129 JLINK_WriteReg(R5, 0x00000000)  returns 0x00 (0000ms, 0630ms total)
T4678 001:129 JLINK_WriteReg(R6, 0x00000000)  returns 0x00 (0000ms, 0630ms total)
T4678 001:129 JLINK_WriteReg(R7, 0x00000000)  returns 0x00 (0000ms, 0630ms total)
T4678 001:129 JLINK_WriteReg(R8, 0x00000000)  returns 0x00 (0000ms, 0630ms total)
T4678 001:129 JLINK_WriteReg(R9, 0x20000160)  returns 0x00 (0000ms, 0630ms total)
T4678 001:129 JLINK_WriteReg(R10, 0x00000000)  returns 0x00 (0000ms, 0630ms total)
T4678 001:129 JLINK_WriteReg(R11, 0x00000000)  returns 0x00 (0000ms, 0630ms total)
T4678 001:129 JLINK_WriteReg(R12, 0x00000000)  returns 0x00 (0000ms, 0630ms total)
T4678 001:129 JLINK_WriteReg(R13 (SP), 0x20001000)  returns 0x00 (0000ms, 0630ms total)
T4678 001:129 JLINK_WriteReg(R14, 0x20000001)  returns 0x00 (0000ms, 0630ms total)
T4678 001:129 JLINK_WriteReg(R15 (PC), 0x200000F4)  returns 0x00 (0000ms, 0630ms total)
T4678 001:129 JLINK_WriteReg(XPSR, 0x01000000)  returns 0x00 (0000ms, 0630ms total)
T4678 001:129 JLINK_WriteReg(MSP, 0x20001000)  returns 0x00 (0000ms, 0630ms total)
T4678 001:129 JLINK_WriteReg(PSP, 0x20001000)  returns 0x00 (0000ms, 0630ms total)
T4678 001:129 JLINK_WriteReg(CFBP, 0x00000000)  returns 0x00 (0000ms, 0630ms total)
T4678 001:129 JLINK_SetBPEx(Addr = 0x20000000, Type = 0xFFFFFFF2)  returns 0x00000006 (0000ms, 0630ms total)
T4678 001:129 JLINK_Go() (0002ms, 0632ms total)
T4678 001:131 JLINK_IsHalted()  returns FALSE (0000ms, 0632ms total)
T4678 001:135 JLINK_IsHalted()  returns FALSE (0000ms, 0632ms total)
T4678 001:137 JLINK_IsHalted()  returns FALSE (0000ms, 0632ms total)
T4678 001:139 JLINK_IsHalted()  returns FALSE (0000ms, 0632ms total)
T4678 001:141 JLINK_IsHalted()  returns FALSE (0000ms, 0632ms total)
T4678 001:143 JLINK_IsHalted()  returns FALSE (0000ms, 0632ms total)
T4678 001:145 JLINK_IsHalted()  returns FALSE (0000ms, 0632ms total)
T4678 001:153 JLINK_IsHalted()  returns FALSE (0000ms, 0632ms total)
T4678 001:155 JLINK_IsHalted()  returns FALSE (0000ms, 0632ms total)
T4678 001:157 JLINK_IsHalted()  returns FALSE (0000ms, 0632ms total)
T4678 001:159 JLINK_IsHalted()  returns FALSE (0000ms, 0632ms total)
T4678 001:161 JLINK_IsHalted()  returns FALSE (0000ms, 0632ms total)
T4678 001:166 JLINK_IsHalted() -- CPU_ReadMem(2 bytes @ 0x20000000)  returns TRUE (0003ms, 0635ms total)
T4678 001:169 JLINK_ReadReg(R15 (PC))  returns 0x20000000 (0000ms, 0632ms total)
T4678 001:169 JLINK_ClrBPEx(BPHandle = 0x00000006)  returns 0x00 (0000ms, 0632ms total)
T4678 001:169 JLINK_ReadReg(R0)  returns 0x00000000 (0000ms, 0632ms total)
T4678 001:169 JLINK_WriteMem(0x20000164, 0x0400 Bytes, ...) - Data: C8 74 20 6A 09 F0 72 FC 4F F6 FF 71 01 EA 20 40 ... -- CPU_WriteMem(1024 bytes @ 0x20000164)  returns 0x400 (0013ms, 0645ms total)
T4678 001:182 JLINK_WriteReg(R0, 0x08000800)  returns 0x00 (0000ms, 0645ms total)
T4678 001:182 JLINK_WriteReg(R1, 0x00000400)  returns 0x00 (0000ms, 0645ms total)
T4678 001:182 JLINK_WriteReg(R2, 0x20000164)  returns 0x00 (0000ms, 0645ms total)
T4678 001:182 JLINK_WriteReg(R3, 0x00000000)  returns 0x00 (0000ms, 0645ms total)
T4678 001:182 JLINK_WriteReg(R4, 0x00000000)  returns 0x00 (0000ms, 0645ms total)
T4678 001:182 JLINK_WriteReg(R5, 0x00000000)  returns 0x00 (0000ms, 0645ms total)
T4678 001:182 JLINK_WriteReg(R6, 0x00000000)  returns 0x00 (0000ms, 0645ms total)
T4678 001:182 JLINK_WriteReg(R7, 0x00000000)  returns 0x00 (0000ms, 0645ms total)
T4678 001:182 JLINK_WriteReg(R8, 0x00000000)  returns 0x00 (0000ms, 0645ms total)
T4678 001:182 JLINK_WriteReg(R9, 0x20000160)  returns 0x00 (0000ms, 0645ms total)
T4678 001:182 JLINK_WriteReg(R10, 0x00000000)  returns 0x00 (0000ms, 0645ms total)
T4678 001:182 JLINK_WriteReg(R11, 0x00000000)  returns 0x00 (0000ms, 0645ms total)
T4678 001:182 JLINK_WriteReg(R12, 0x00000000)  returns 0x00 (0000ms, 0645ms total)
T4678 001:182 JLINK_WriteReg(R13 (SP), 0x20001000)  returns 0x00 (0000ms, 0645ms total)
T4678 001:182 JLINK_WriteReg(R14, 0x20000001)  returns 0x00 (0000ms, 0645ms total)
T4678 001:182 JLINK_WriteReg(R15 (PC), 0x200000F4)  returns 0x00 (0000ms, 0645ms total)
T4678 001:182 JLINK_WriteReg(XPSR, 0x01000000)  returns 0x00 (0000ms, 0645ms total)
T4678 001:182 JLINK_WriteReg(MSP, 0x20001000)  returns 0x00 (0000ms, 0645ms total)
T4678 001:182 JLINK_WriteReg(PSP, 0x20001000)  returns 0x00 (0000ms, 0645ms total)
T4678 001:182 JLINK_WriteReg(CFBP, 0x00000000)  returns 0x00 (0000ms, 0645ms total)
T4678 001:182 JLINK_SetBPEx(Addr = 0x20000000, Type = 0xFFFFFFF2)  returns 0x00000007 (0000ms, 0645ms total)
T4678 001:182 JLINK_Go() (0002ms, 0647ms total)
T4678 001:184 JLINK_IsHalted()  returns FALSE (0000ms, 0647ms total)
T4678 001:188 JLINK_IsHalted()  returns FALSE (0000ms, 0647ms total)
T4678 001:190 JLINK_IsHalted()  returns FALSE (0000ms, 0647ms total)
T4678 001:196 JLINK_IsHalted()  returns FALSE (0000ms, 0647ms total)
T4678 001:197 JLINK_IsHalted()  returns FALSE (0000ms, 0647ms total)
T4678 001:199 JLINK_IsHalted()  returns FALSE (0000ms, 0647ms total)
T4678 001:201 JLINK_IsHalted()  returns FALSE (0000ms, 0647ms total)
T4678 001:203 JLINK_IsHalted()  returns FALSE (0000ms, 0647ms total)
T4678 001:206 JLINK_IsHalted()  returns FALSE (0000ms, 0647ms total)
T4678 001:213 JLINK_IsHalted()  returns FALSE (0000ms, 0647ms total)
T4678 001:216 JLINK_IsHalted() -- CPU_ReadMem(2 bytes @ 0x20000000)  returns TRUE (0003ms, 0650ms total)
T4678 001:219 JLINK_ReadReg(R15 (PC))  returns 0x20000000 (0000ms, 0647ms total)
T4678 001:219 JLINK_ClrBPEx(BPHandle = 0x00000007)  returns 0x00 (0000ms, 0647ms total)
T4678 001:219 JLINK_ReadReg(R0)  returns 0x00000000 (0000ms, 0647ms total)
T4678 001:220 JLINK_WriteMem(0x20000164, 0x0400 Bytes, ...) - Data: F6 DB 4F F4 80 71 A9 48 06 F0 97 FA 40 46 BD E8 ... -- CPU_WriteMem(1024 bytes @ 0x20000164)  returns 0x400 (0012ms, 0659ms total)
T4678 001:232 JLINK_WriteReg(R0, 0x08000C00)  returns 0x00 (0000ms, 0659ms total)
T4678 001:232 JLINK_WriteReg(R1, 0x00000400)  returns 0x00 (0000ms, 0659ms total)
T4678 001:232 JLINK_WriteReg(R2, 0x20000164)  returns 0x00 (0000ms, 0659ms total)
T4678 001:232 JLINK_WriteReg(R3, 0x00000000)  returns 0x00 (0000ms, 0659ms total)
T4678 001:232 JLINK_WriteReg(R4, 0x00000000)  returns 0x00 (0000ms, 0659ms total)
T4678 001:232 JLINK_WriteReg(R5, 0x00000000)  returns 0x00 (0000ms, 0659ms total)
T4678 001:232 JLINK_WriteReg(R6, 0x00000000)  returns 0x00 (0000ms, 0659ms total)
T4678 001:232 JLINK_WriteReg(R7, 0x00000000)  returns 0x00 (0000ms, 0659ms total)
T4678 001:232 JLINK_WriteReg(R8, 0x00000000)  returns 0x00 (0000ms, 0659ms total)
T4678 001:232 JLINK_WriteReg(R9, 0x20000160)  returns 0x00 (0000ms, 0659ms total)
T4678 001:232 JLINK_WriteReg(R10, 0x00000000)  returns 0x00 (0000ms, 0659ms total)
T4678 001:232 JLINK_WriteReg(R11, 0x00000000)  returns 0x00 (0000ms, 0659ms total)
T4678 001:232 JLINK_WriteReg(R12, 0x00000000)  returns 0x00 (0000ms, 0659ms total)
T4678 001:232 JLINK_WriteReg(R13 (SP), 0x20001000)  returns 0x00 (0000ms, 0659ms total)
T4678 001:232 JLINK_WriteReg(R14, 0x20000001)  returns 0x00 (0000ms, 0659ms total)
T4678 001:232 JLINK_WriteReg(R15 (PC), 0x200000F4)  returns 0x00 (0000ms, 0659ms total)
T4678 001:232 JLINK_WriteReg(XPSR, 0x01000000)  returns 0x00 (0000ms, 0659ms total)
T4678 001:232 JLINK_WriteReg(MSP, 0x20001000)  returns 0x00 (0000ms, 0659ms total)
T4678 001:232 JLINK_WriteReg(PSP, 0x20001000)  returns 0x00 (0000ms, 0659ms total)
T4678 001:232 JLINK_WriteReg(CFBP, 0x00000000)  returns 0x00 (0000ms, 0659ms total)
T4678 001:232 JLINK_SetBPEx(Addr = 0x20000000, Type = 0xFFFFFFF2)  returns 0x00000008 (0000ms, 0659ms total)
T4678 001:232 JLINK_Go() (0002ms, 0661ms total)
T4678 001:234 JLINK_IsHalted()  returns FALSE (0000ms, 0661ms total)
T4678 001:246 JLINK_IsHalted()  returns FALSE (0000ms, 0661ms total)
T4678 001:249 JLINK_IsHalted()  returns FALSE (0000ms, 0661ms total)
T4678 001:252 JLINK_IsHalted()  returns FALSE (0000ms, 0661ms total)
T4678 001:257 JLINK_IsHalted()  returns FALSE (0000ms, 0661ms total)
T4678 001:261 JLINK_IsHalted()  returns FALSE (0000ms, 0661ms total)
T4678 001:263 JLINK_IsHalted()  returns FALSE (0000ms, 0661ms total)
T4678 001:266 JLINK_IsHalted() -- CPU_ReadMem(2 bytes @ 0x20000000)  returns TRUE (0003ms, 0664ms total)
T4678 001:269 JLINK_ReadReg(R15 (PC))  returns 0x20000000 (0000ms, 0661ms total)
T4678 001:269 JLINK_ClrBPEx(BPHandle = 0x00000008)  returns 0x00 (0000ms, 0661ms total)
T4678 001:269 JLINK_ReadReg(R0)  returns 0x00000000 (0000ms, 0661ms total)
T4678 001:271 JLINK_WriteMem(0x20000164, 0x0400 Bytes, ...) - Data: 0A 54 9D F8 02 20 20 46 61 1C CC B2 AC 49 0A 54 ... -- CPU_WriteMem(1024 bytes @ 0x20000164)  returns 0x400 (0013ms, 0674ms total)
T4678 001:284 JLINK_WriteReg(R0, 0x08001000)  returns 0x00 (0000ms, 0674ms total)
T4678 001:284 JLINK_WriteReg(R1, 0x00000400)  returns 0x00 (0000ms, 0674ms total)
T4678 001:284 JLINK_WriteReg(R2, 0x20000164)  returns 0x00 (0000ms, 0674ms total)
T4678 001:284 JLINK_WriteReg(R3, 0x00000000)  returns 0x00 (0000ms, 0674ms total)
T4678 001:284 JLINK_WriteReg(R4, 0x00000000)  returns 0x00 (0000ms, 0674ms total)
T4678 001:284 JLINK_WriteReg(R5, 0x00000000)  returns 0x00 (0000ms, 0674ms total)
T4678 001:284 JLINK_WriteReg(R6, 0x00000000)  returns 0x00 (0000ms, 0674ms total)
T4678 001:284 JLINK_WriteReg(R7, 0x00000000)  returns 0x00 (0000ms, 0674ms total)
T4678 001:284 JLINK_WriteReg(R8, 0x00000000)  returns 0x00 (0000ms, 0674ms total)
T4678 001:284 JLINK_WriteReg(R9, 0x20000160)  returns 0x00 (0000ms, 0674ms total)
T4678 001:284 JLINK_WriteReg(R10, 0x00000000)  returns 0x00 (0000ms, 0674ms total)
T4678 001:284 JLINK_WriteReg(R11, 0x00000000)  returns 0x00 (0000ms, 0674ms total)
T4678 001:284 JLINK_WriteReg(R12, 0x00000000)  returns 0x00 (0000ms, 0674ms total)
T4678 001:284 JLINK_WriteReg(R13 (SP), 0x20001000)  returns 0x00 (0000ms, 0674ms total)
T4678 001:284 JLINK_WriteReg(R14, 0x20000001)  returns 0x00 (0000ms, 0674ms total)
T4678 001:284 JLINK_WriteReg(R15 (PC), 0x200000F4)  returns 0x00 (0000ms, 0674ms total)
T4678 001:284 JLINK_WriteReg(XPSR, 0x01000000)  returns 0x00 (0000ms, 0674ms total)
T4678 001:284 JLINK_WriteReg(MSP, 0x20001000)  returns 0x00 (0000ms, 0674ms total)
T4678 001:284 JLINK_WriteReg(PSP, 0x20001000)  returns 0x00 (0000ms, 0674ms total)
T4678 001:284 JLINK_WriteReg(CFBP, 0x00000000)  returns 0x00 (0000ms, 0674ms total)
T4678 001:284 JLINK_SetBPEx(Addr = 0x20000000, Type = 0xFFFFFFF2)  returns 0x00000009 (0000ms, 0674ms total)
T4678 001:284 JLINK_Go() (0002ms, 0676ms total)
T4678 001:286 JLINK_IsHalted()  returns FALSE (0000ms, 0676ms total)
T4678 001:292 JLINK_IsHalted()  returns FALSE (0000ms, 0676ms total)
T4678 001:295 JLINK_IsHalted()  returns FALSE (0000ms, 0676ms total)
T4678 001:298 JLINK_IsHalted()  returns FALSE (0000ms, 0676ms total)
T4678 001:308 JLINK_IsHalted()  returns FALSE (0000ms, 0676ms total)
T4678 001:311 JLINK_IsHalted()  returns FALSE (0000ms, 0676ms total)
T4678 001:315 JLINK_IsHalted()  returns FALSE (0000ms, 0676ms total)
T4678 001:324 JLINK_IsHalted() -- CPU_ReadMem(2 bytes @ 0x20000000)  returns TRUE (0003ms, 0679ms total)
T4678 001:327 JLINK_ReadReg(R15 (PC))  returns 0x20000000 (0000ms, 0676ms total)
T4678 001:327 JLINK_ClrBPEx(BPHandle = 0x00000009)  returns 0x00 (0000ms, 0676ms total)
T4678 001:327 JLINK_ReadReg(R0)  returns 0x00000000 (0000ms, 0676ms total)
T4678 001:327 JLINK_WriteMem(0x20000164, 0x0400 Bytes, ...) - Data: 00 90 08 F0 73 FE 00 B2 02 90 9D F8 09 20 20 46 ... -- CPU_WriteMem(1024 bytes @ 0x20000164)  returns 0x400 (0013ms, 0689ms total)
T4678 001:340 JLINK_WriteReg(R0, 0x08001400)  returns 0x00 (0000ms, 0689ms total)
T4678 001:340 JLINK_WriteReg(R1, 0x00000400)  returns 0x00 (0000ms, 0689ms total)
T4678 001:340 JLINK_WriteReg(R2, 0x20000164)  returns 0x00 (0000ms, 0689ms total)
T4678 001:340 JLINK_WriteReg(R3, 0x00000000)  returns 0x00 (0000ms, 0689ms total)
T4678 001:340 JLINK_WriteReg(R4, 0x00000000)  returns 0x00 (0000ms, 0689ms total)
T4678 001:340 JLINK_WriteReg(R5, 0x00000000)  returns 0x00 (0000ms, 0689ms total)
T4678 001:340 JLINK_WriteReg(R6, 0x00000000)  returns 0x00 (0000ms, 0689ms total)
T4678 001:340 JLINK_WriteReg(R7, 0x00000000)  returns 0x00 (0000ms, 0689ms total)
T4678 001:340 JLINK_WriteReg(R8, 0x00000000)  returns 0x00 (0000ms, 0689ms total)
T4678 001:340 JLINK_WriteReg(R9, 0x20000160)  returns 0x00 (0000ms, 0689ms total)
T4678 001:340 JLINK_WriteReg(R10, 0x00000000)  returns 0x00 (0000ms, 0689ms total)
T4678 001:340 JLINK_WriteReg(R11, 0x00000000)  returns 0x00 (0000ms, 0689ms total)
T4678 001:340 JLINK_WriteReg(R12, 0x00000000)  returns 0x00 (0000ms, 0689ms total)
T4678 001:340 JLINK_WriteReg(R13 (SP), 0x20001000)  returns 0x00 (0000ms, 0689ms total)
T4678 001:340 JLINK_WriteReg(R14, 0x20000001)  returns 0x00 (0000ms, 0689ms total)
T4678 001:340 JLINK_WriteReg(R15 (PC), 0x200000F4)  returns 0x00 (0000ms, 0689ms total)
T4678 001:340 JLINK_WriteReg(XPSR, 0x01000000)  returns 0x00 (0000ms, 0689ms total)
T4678 001:340 JLINK_WriteReg(MSP, 0x20001000)  returns 0x00 (0000ms, 0689ms total)
T4678 001:340 JLINK_WriteReg(PSP, 0x20001000)  returns 0x00 (0000ms, 0689ms total)
T4678 001:340 JLINK_WriteReg(CFBP, 0x00000000)  returns 0x00 (0000ms, 0689ms total)
T4678 001:340 JLINK_SetBPEx(Addr = 0x20000000, Type = 0xFFFFFFF2)  returns 0x0000000A (0000ms, 0689ms total)
T4678 001:340 JLINK_Go() (0002ms, 0691ms total)
T4678 001:342 JLINK_IsHalted()  returns FALSE (0000ms, 0691ms total)
T4678 001:352 JLINK_IsHalted()  returns FALSE (0000ms, 0691ms total)
T4678 001:356 JLINK_IsHalted()  returns FALSE (0000ms, 0691ms total)
T4678 001:360 JLINK_IsHalted()  returns FALSE (0000ms, 0691ms total)
T4678 001:370 JLINK_IsHalted()  returns FALSE (0000ms, 0691ms total)
T4678 001:374 JLINK_IsHalted() -- CPU_ReadMem(2 bytes @ 0x20000000)  returns TRUE (0003ms, 0694ms total)
T4678 001:377 JLINK_ReadReg(R15 (PC))  returns 0x20000000 (0000ms, 0691ms total)
T4678 001:377 JLINK_ClrBPEx(BPHandle = 0x0000000A)  returns 0x00 (0000ms, 0691ms total)
T4678 001:377 JLINK_ReadReg(R0)  returns 0x00000000 (0000ms, 0691ms total)
T4678 001:377 JLINK_WriteMem(0x20000164, 0x0400 Bytes, ...) - Data: C3 F9 20 22 BA 49 00 E0 1A E1 05 A8 08 F0 BC F9 ... -- CPU_WriteMem(1024 bytes @ 0x20000164)  returns 0x400 (0013ms, 0704ms total)
T4678 001:390 JLINK_WriteReg(R0, 0x08001800)  returns 0x00 (0000ms, 0704ms total)
T4678 001:390 JLINK_WriteReg(R1, 0x00000400)  returns 0x00 (0000ms, 0704ms total)
T4678 001:390 JLINK_WriteReg(R2, 0x20000164)  returns 0x00 (0000ms, 0704ms total)
T4678 001:390 JLINK_WriteReg(R3, 0x00000000)  returns 0x00 (0000ms, 0704ms total)
T4678 001:390 JLINK_WriteReg(R4, 0x00000000)  returns 0x00 (0000ms, 0704ms total)
T4678 001:390 JLINK_WriteReg(R5, 0x00000000)  returns 0x00 (0000ms, 0704ms total)
T4678 001:390 JLINK_WriteReg(R6, 0x00000000)  returns 0x00 (0000ms, 0704ms total)
T4678 001:390 JLINK_WriteReg(R7, 0x00000000)  returns 0x00 (0000ms, 0704ms total)
T4678 001:390 JLINK_WriteReg(R8, 0x00000000)  returns 0x00 (0000ms, 0704ms total)
T4678 001:390 JLINK_WriteReg(R9, 0x20000160)  returns 0x00 (0000ms, 0704ms total)
T4678 001:390 JLINK_WriteReg(R10, 0x00000000)  returns 0x00 (0000ms, 0704ms total)
T4678 001:390 JLINK_WriteReg(R11, 0x00000000)  returns 0x00 (0000ms, 0704ms total)
T4678 001:390 JLINK_WriteReg(R12, 0x00000000)  returns 0x00 (0000ms, 0704ms total)
T4678 001:390 JLINK_WriteReg(R13 (SP), 0x20001000)  returns 0x00 (0000ms, 0704ms total)
T4678 001:390 JLINK_WriteReg(R14, 0x20000001)  returns 0x00 (0000ms, 0704ms total)
T4678 001:390 JLINK_WriteReg(R15 (PC), 0x200000F4)  returns 0x00 (0000ms, 0704ms total)
T4678 001:390 JLINK_WriteReg(XPSR, 0x01000000)  returns 0x00 (0000ms, 0704ms total)
T4678 001:390 JLINK_WriteReg(MSP, 0x20001000)  returns 0x00 (0000ms, 0704ms total)
T4678 001:390 JLINK_WriteReg(PSP, 0x20001000)  returns 0x00 (0000ms, 0704ms total)
T4678 001:390 JLINK_WriteReg(CFBP, 0x00000000)  returns 0x00 (0000ms, 0704ms total)
T4678 001:390 JLINK_SetBPEx(Addr = 0x20000000, Type = 0xFFFFFFF2)  returns 0x0000000B (0000ms, 0704ms total)
T4678 001:390 JLINK_Go() (0002ms, 0706ms total)
T4678 001:392 JLINK_IsHalted()  returns FALSE (0000ms, 0706ms total)
T4678 001:403 JLINK_IsHalted()  returns FALSE (0000ms, 0706ms total)
T4678 001:406 JLINK_IsHalted()  returns FALSE (0000ms, 0706ms total)
T4678 001:410 JLINK_IsHalted()  returns FALSE (0000ms, 0706ms total)
T4678 001:417 JLINK_IsHalted()  returns FALSE (0000ms, 0706ms total)
T4678 001:420 JLINK_IsHalted()  returns FALSE (0000ms, 0706ms total)
T4678 001:424 JLINK_IsHalted() -- CPU_ReadMem(2 bytes @ 0x20000000)  returns TRUE (0003ms, 0709ms total)
T4678 001:427 JLINK_ReadReg(R15 (PC))  returns 0x20000000 (0000ms, 0706ms total)
T4678 001:427 JLINK_ClrBPEx(BPHandle = 0x0000000B)  returns 0x00 (0000ms, 0706ms total)
T4678 001:427 JLINK_ReadReg(R0)  returns 0x00000000 (0000ms, 0706ms total)
T4678 001:427 JLINK_WriteMem(0x20000164, 0x0400 Bytes, ...) - Data: 08 00 D0 48 40 68 D0 49 00 90 08 F0 4B F8 01 90 ... -- CPU_WriteMem(1024 bytes @ 0x20000164)  returns 0x400 (0013ms, 0719ms total)
T4678 001:440 JLINK_WriteReg(R0, 0x08001C00)  returns 0x00 (0000ms, 0719ms total)
T4678 001:440 JLINK_WriteReg(R1, 0x00000400)  returns 0x00 (0000ms, 0719ms total)
T4678 001:440 JLINK_WriteReg(R2, 0x20000164)  returns 0x00 (0000ms, 0719ms total)
T4678 001:440 JLINK_WriteReg(R3, 0x00000000)  returns 0x00 (0000ms, 0719ms total)
T4678 001:440 JLINK_WriteReg(R4, 0x00000000)  returns 0x00 (0000ms, 0719ms total)
T4678 001:440 JLINK_WriteReg(R5, 0x00000000)  returns 0x00 (0000ms, 0719ms total)
T4678 001:440 JLINK_WriteReg(R6, 0x00000000)  returns 0x00 (0000ms, 0719ms total)
T4678 001:440 JLINK_WriteReg(R7, 0x00000000)  returns 0x00 (0000ms, 0719ms total)
T4678 001:440 JLINK_WriteReg(R8, 0x00000000)  returns 0x00 (0000ms, 0719ms total)
T4678 001:440 JLINK_WriteReg(R9, 0x20000160)  returns 0x00 (0000ms, 0719ms total)
T4678 001:440 JLINK_WriteReg(R10, 0x00000000)  returns 0x00 (0000ms, 0719ms total)
T4678 001:440 JLINK_WriteReg(R11, 0x00000000)  returns 0x00 (0000ms, 0719ms total)
T4678 001:440 JLINK_WriteReg(R12, 0x00000000)  returns 0x00 (0000ms, 0719ms total)
T4678 001:440 JLINK_WriteReg(R13 (SP), 0x20001000)  returns 0x00 (0000ms, 0719ms total)
T4678 001:440 JLINK_WriteReg(R14, 0x20000001)  returns 0x00 (0000ms, 0719ms total)
T4678 001:440 JLINK_WriteReg(R15 (PC), 0x200000F4)  returns 0x00 (0000ms, 0719ms total)
T4678 001:440 JLINK_WriteReg(XPSR, 0x01000000)  returns 0x00 (0000ms, 0719ms total)
T4678 001:440 JLINK_WriteReg(MSP, 0x20001000)  returns 0x00 (0000ms, 0719ms total)
T4678 001:440 JLINK_WriteReg(PSP, 0x20001000)  returns 0x00 (0000ms, 0719ms total)
T4678 001:440 JLINK_WriteReg(CFBP, 0x00000000)  returns 0x00 (0000ms, 0719ms total)
T4678 001:440 JLINK_SetBPEx(Addr = 0x20000000, Type = 0xFFFFFFF2)  returns 0x0000000C (0000ms, 0719ms total)
T4678 001:440 JLINK_Go() (0002ms, 0721ms total)
T4678 001:442 JLINK_IsHalted()  returns FALSE (0000ms, 0721ms total)
T4678 001:450 JLINK_IsHalted()  returns FALSE (0000ms, 0721ms total)
T4678 001:454 JLINK_IsHalted()  returns FALSE (0000ms, 0721ms total)
T4678 001:463 JLINK_IsHalted()  returns FALSE (0000ms, 0721ms total)
T4678 001:465 JLINK_IsHalted()  returns FALSE (0000ms, 0721ms total)
T4678 001:467 JLINK_IsHalted()  returns FALSE (0000ms, 0721ms total)
T4678 001:469 JLINK_IsHalted()  returns FALSE (0000ms, 0721ms total)
T4678 001:471 JLINK_IsHalted()  returns FALSE (0000ms, 0721ms total)
T4678 001:473 JLINK_IsHalted() -- CPU_ReadMem(2 bytes @ 0x20000000)  returns TRUE (0003ms, 0724ms total)
T4678 001:476 JLINK_ReadReg(R15 (PC))  returns 0x20000000 (0000ms, 0721ms total)
T4678 001:476 JLINK_ClrBPEx(BPHandle = 0x0000000C)  returns 0x00 (0000ms, 0721ms total)
T4678 001:476 JLINK_ReadReg(R0)  returns 0x00000000 (0000ms, 0721ms total)
T4678 001:477 JLINK_WriteMem(0x20000164, 0x0400 Bytes, ...) - Data: 73 E0 00 90 07 F0 4E FE 01 90 08 F0 88 F8 80 B2 ... -- CPU_WriteMem(1024 bytes @ 0x20000164)  returns 0x400 (0012ms, 0733ms total)
T4678 001:489 JLINK_WriteReg(R0, 0x08002000)  returns 0x00 (0000ms, 0733ms total)
T4678 001:489 JLINK_WriteReg(R1, 0x00000400)  returns 0x00 (0000ms, 0733ms total)
T4678 001:489 JLINK_WriteReg(R2, 0x20000164)  returns 0x00 (0000ms, 0733ms total)
T4678 001:489 JLINK_WriteReg(R3, 0x00000000)  returns 0x00 (0000ms, 0733ms total)
T4678 001:489 JLINK_WriteReg(R4, 0x00000000)  returns 0x00 (0000ms, 0733ms total)
T4678 001:489 JLINK_WriteReg(R5, 0x00000000)  returns 0x00 (0000ms, 0733ms total)
T4678 001:489 JLINK_WriteReg(R6, 0x00000000)  returns 0x00 (0000ms, 0733ms total)
T4678 001:489 JLINK_WriteReg(R7, 0x00000000)  returns 0x00 (0000ms, 0733ms total)
T4678 001:489 JLINK_WriteReg(R8, 0x00000000)  returns 0x00 (0000ms, 0733ms total)
T4678 001:489 JLINK_WriteReg(R9, 0x20000160)  returns 0x00 (0000ms, 0733ms total)
T4678 001:489 JLINK_WriteReg(R10, 0x00000000)  returns 0x00 (0000ms, 0733ms total)
T4678 001:489 JLINK_WriteReg(R11, 0x00000000)  returns 0x00 (0000ms, 0733ms total)
T4678 001:489 JLINK_WriteReg(R12, 0x00000000)  returns 0x00 (0000ms, 0733ms total)
T4678 001:489 JLINK_WriteReg(R13 (SP), 0x20001000)  returns 0x00 (0000ms, 0733ms total)
T4678 001:489 JLINK_WriteReg(R14, 0x20000001)  returns 0x00 (0000ms, 0733ms total)
T4678 001:489 JLINK_WriteReg(R15 (PC), 0x200000F4)  returns 0x00 (0000ms, 0733ms total)
T4678 001:489 JLINK_WriteReg(XPSR, 0x01000000)  returns 0x00 (0000ms, 0733ms total)
T4678 001:489 JLINK_WriteReg(MSP, 0x20001000)  returns 0x00 (0000ms, 0733ms total)
T4678 001:489 JLINK_WriteReg(PSP, 0x20001000)  returns 0x00 (0000ms, 0733ms total)
T4678 001:489 JLINK_WriteReg(CFBP, 0x00000000)  returns 0x00 (0000ms, 0733ms total)
T4678 001:489 JLINK_SetBPEx(Addr = 0x20000000, Type = 0xFFFFFFF2)  returns 0x0000000D (0000ms, 0733ms total)
T4678 001:489 JLINK_Go() (0002ms, 0735ms total)
T4678 001:491 JLINK_IsHalted()  returns FALSE (0000ms, 0735ms total)
T4678 001:496 JLINK_IsHalted()  returns FALSE (0000ms, 0735ms total)
T4678 001:498 JLINK_IsHalted()  returns FALSE (0000ms, 0735ms total)
T4678 001:500 JLINK_IsHalted()  returns FALSE (0000ms, 0735ms total)
T4678 001:502 JLINK_IsHalted()  returns FALSE (0000ms, 0735ms total)
T4678 001:506 JLINK_IsHalted()  returns FALSE (0000ms, 0735ms total)
T4678 001:508 JLINK_IsHalted()  returns FALSE (0000ms, 0735ms total)
T4678 001:510 JLINK_IsHalted()  returns FALSE (0000ms, 0735ms total)
T4678 001:512 JLINK_IsHalted()  returns FALSE (0000ms, 0735ms total)
T4678 001:514 JLINK_IsHalted()  returns FALSE (0000ms, 0735ms total)
T4678 001:516 JLINK_IsHalted()  returns FALSE (0000ms, 0735ms total)
T4678 001:518 JLINK_IsHalted()  returns FALSE (0000ms, 0735ms total)
T4678 001:523 JLINK_IsHalted() -- CPU_ReadMem(2 bytes @ 0x20000000)  returns TRUE (0003ms, 0738ms total)
T4678 001:526 JLINK_ReadReg(R15 (PC))  returns 0x20000000 (0000ms, 0735ms total)
T4678 001:526 JLINK_ClrBPEx(BPHandle = 0x0000000D)  returns 0x00 (0000ms, 0735ms total)
T4678 001:526 JLINK_ReadReg(R0)  returns 0x00000000 (0000ms, 0735ms total)
T4678 001:526 JLINK_WriteMem(0x20000164, 0x0400 Bytes, ...) - Data: 69 46 FF F7 5E FF 80 46 07 F0 44 FE 44 F8 77 0F ... -- CPU_WriteMem(1024 bytes @ 0x20000164)  returns 0x400 (0013ms, 0748ms total)
T4678 001:539 JLINK_WriteReg(R0, 0x08002400)  returns 0x00 (0000ms, 0748ms total)
T4678 001:539 JLINK_WriteReg(R1, 0x00000400)  returns 0x00 (0000ms, 0748ms total)
T4678 001:539 JLINK_WriteReg(R2, 0x20000164)  returns 0x00 (0000ms, 0748ms total)
T4678 001:539 JLINK_WriteReg(R3, 0x00000000)  returns 0x00 (0000ms, 0748ms total)
T4678 001:539 JLINK_WriteReg(R4, 0x00000000)  returns 0x00 (0000ms, 0748ms total)
T4678 001:539 JLINK_WriteReg(R5, 0x00000000)  returns 0x00 (0000ms, 0748ms total)
T4678 001:539 JLINK_WriteReg(R6, 0x00000000)  returns 0x00 (0000ms, 0748ms total)
T4678 001:539 JLINK_WriteReg(R7, 0x00000000)  returns 0x00 (0000ms, 0748ms total)
T4678 001:539 JLINK_WriteReg(R8, 0x00000000)  returns 0x00 (0000ms, 0748ms total)
T4678 001:539 JLINK_WriteReg(R9, 0x20000160)  returns 0x00 (0000ms, 0748ms total)
T4678 001:539 JLINK_WriteReg(R10, 0x00000000)  returns 0x00 (0000ms, 0748ms total)
T4678 001:539 JLINK_WriteReg(R11, 0x00000000)  returns 0x00 (0000ms, 0748ms total)
T4678 001:539 JLINK_WriteReg(R12, 0x00000000)  returns 0x00 (0000ms, 0748ms total)
T4678 001:539 JLINK_WriteReg(R13 (SP), 0x20001000)  returns 0x00 (0000ms, 0748ms total)
T4678 001:539 JLINK_WriteReg(R14, 0x20000001)  returns 0x00 (0000ms, 0748ms total)
T4678 001:539 JLINK_WriteReg(R15 (PC), 0x200000F4)  returns 0x00 (0000ms, 0748ms total)
T4678 001:539 JLINK_WriteReg(XPSR, 0x01000000)  returns 0x00 (0000ms, 0748ms total)
T4678 001:539 JLINK_WriteReg(MSP, 0x20001000)  returns 0x00 (0000ms, 0748ms total)
T4678 001:539 JLINK_WriteReg(PSP, 0x20001000)  returns 0x00 (0000ms, 0748ms total)
T4678 001:539 JLINK_WriteReg(CFBP, 0x00000000)  returns 0x00 (0000ms, 0748ms total)
T4678 001:539 JLINK_SetBPEx(Addr = 0x20000000, Type = 0xFFFFFFF2)  returns 0x0000000E (0000ms, 0748ms total)
T4678 001:539 JLINK_Go() (0002ms, 0750ms total)
T4678 001:541 JLINK_IsHalted()  returns FALSE (0000ms, 0750ms total)
T4678 001:546 JLINK_IsHalted()  returns FALSE (0000ms, 0750ms total)
T4678 001:548 JLINK_IsHalted()  returns FALSE (0000ms, 0750ms total)
T4678 001:550 JLINK_IsHalted()  returns FALSE (0000ms, 0750ms total)
T4678 001:555 JLINK_IsHalted()  returns FALSE (0000ms, 0750ms total)
T4678 001:557 JLINK_IsHalted()  returns FALSE (0000ms, 0750ms total)
T4678 001:559 JLINK_IsHalted()  returns FALSE (0000ms, 0750ms total)
T4678 001:561 JLINK_IsHalted()  returns FALSE (0000ms, 0750ms total)
T4678 001:563 JLINK_IsHalted()  returns FALSE (0000ms, 0750ms total)
T4678 001:565 JLINK_IsHalted()  returns FALSE (0000ms, 0750ms total)
T4678 001:567 JLINK_IsHalted()  returns FALSE (0000ms, 0750ms total)
T4678 001:572 JLINK_IsHalted() -- CPU_ReadMem(2 bytes @ 0x20000000)  returns TRUE (0003ms, 0753ms total)
T4678 001:575 JLINK_ReadReg(R15 (PC))  returns 0x20000000 (0000ms, 0750ms total)
T4678 001:575 JLINK_ClrBPEx(BPHandle = 0x0000000E)  returns 0x00 (0000ms, 0750ms total)
T4678 001:575 JLINK_ReadReg(R0)  returns 0x00000000 (0000ms, 0750ms total)
T4678 001:575 JLINK_WriteMem(0x20000164, 0x0400 Bytes, ...) - Data: FC A1 38 46 07 F0 E4 F9 06 46 06 21 30 46 FF F7 ... -- CPU_WriteMem(1024 bytes @ 0x20000164)  returns 0x400 (0013ms, 0763ms total)
T4678 001:588 JLINK_WriteReg(R0, 0x08002800)  returns 0x00 (0000ms, 0763ms total)
T4678 001:588 JLINK_WriteReg(R1, 0x00000400)  returns 0x00 (0000ms, 0763ms total)
T4678 001:588 JLINK_WriteReg(R2, 0x20000164)  returns 0x00 (0000ms, 0763ms total)
T4678 001:588 JLINK_WriteReg(R3, 0x00000000)  returns 0x00 (0000ms, 0763ms total)
T4678 001:588 JLINK_WriteReg(R4, 0x00000000)  returns 0x00 (0000ms, 0763ms total)
T4678 001:588 JLINK_WriteReg(R5, 0x00000000)  returns 0x00 (0000ms, 0763ms total)
T4678 001:588 JLINK_WriteReg(R6, 0x00000000)  returns 0x00 (0000ms, 0763ms total)
T4678 001:588 JLINK_WriteReg(R7, 0x00000000)  returns 0x00 (0000ms, 0763ms total)
T4678 001:588 JLINK_WriteReg(R8, 0x00000000)  returns 0x00 (0000ms, 0763ms total)
T4678 001:588 JLINK_WriteReg(R9, 0x20000160)  returns 0x00 (0000ms, 0763ms total)
T4678 001:588 JLINK_WriteReg(R10, 0x00000000)  returns 0x00 (0000ms, 0763ms total)
T4678 001:588 JLINK_WriteReg(R11, 0x00000000)  returns 0x00 (0000ms, 0763ms total)
T4678 001:588 JLINK_WriteReg(R12, 0x00000000)  returns 0x00 (0000ms, 0763ms total)
T4678 001:588 JLINK_WriteReg(R13 (SP), 0x20001000)  returns 0x00 (0000ms, 0763ms total)
T4678 001:588 JLINK_WriteReg(R14, 0x20000001)  returns 0x00 (0000ms, 0763ms total)
T4678 001:588 JLINK_WriteReg(R15 (PC), 0x200000F4)  returns 0x00 (0000ms, 0763ms total)
T4678 001:588 JLINK_WriteReg(XPSR, 0x01000000)  returns 0x00 (0000ms, 0763ms total)
T4678 001:588 JLINK_WriteReg(MSP, 0x20001000)  returns 0x00 (0000ms, 0763ms total)
T4678 001:588 JLINK_WriteReg(PSP, 0x20001000)  returns 0x00 (0000ms, 0763ms total)
T4678 001:588 JLINK_WriteReg(CFBP, 0x00000000)  returns 0x00 (0000ms, 0763ms total)
T4678 001:588 JLINK_SetBPEx(Addr = 0x20000000, Type = 0xFFFFFFF2)  returns 0x0000000F (0000ms, 0763ms total)
T4678 001:588 JLINK_Go() (0002ms, 0765ms total)
T4678 001:590 JLINK_IsHalted()  returns FALSE (0000ms, 0765ms total)
T4678 001:594 JLINK_IsHalted()  returns FALSE (0000ms, 0765ms total)
T4678 001:596 JLINK_IsHalted()  returns FALSE (0000ms, 0765ms total)
T4678 001:599 JLINK_IsHalted()  returns FALSE (0000ms, 0765ms total)
T4678 001:601 JLINK_IsHalted()  returns FALSE (0000ms, 0765ms total)
T4678 001:603 JLINK_IsHalted()  returns FALSE (0000ms, 0765ms total)
T4678 001:605 JLINK_IsHalted()  returns FALSE (0000ms, 0765ms total)
T4678 001:607 JLINK_IsHalted()  returns FALSE (0000ms, 0765ms total)
T4678 001:609 JLINK_IsHalted()  returns FALSE (0000ms, 0765ms total)
T4678 001:611 JLINK_IsHalted()  returns FALSE (0000ms, 0765ms total)
T4678 001:613 JLINK_IsHalted()  returns FALSE (0000ms, 0765ms total)
T4678 001:619 JLINK_IsHalted()  returns FALSE (0000ms, 0765ms total)
T4678 001:621 JLINK_IsHalted() -- CPU_ReadMem(2 bytes @ 0x20000000)  returns TRUE (0003ms, 0768ms total)
T4678 001:624 JLINK_ReadReg(R15 (PC))  returns 0x20000000 (0000ms, 0765ms total)
T4678 001:624 JLINK_ClrBPEx(BPHandle = 0x0000000F)  returns 0x00 (0000ms, 0765ms total)
T4678 001:624 JLINK_ReadReg(R0)  returns 0x00000000 (0000ms, 0765ms total)
T4678 001:625 JLINK_WriteMem(0x20000164, 0x0400 Bytes, ...) - Data: 53 56 00 00 F8 05 00 20 30 00 00 20 38 00 00 20 ... -- CPU_WriteMem(1024 bytes @ 0x20000164)  returns 0x400 (0012ms, 0777ms total)
T4678 001:637 JLINK_WriteReg(R0, 0x08002C00)  returns 0x00 (0000ms, 0777ms total)
T4678 001:637 JLINK_WriteReg(R1, 0x00000400)  returns 0x00 (0000ms, 0777ms total)
T4678 001:637 JLINK_WriteReg(R2, 0x20000164)  returns 0x00 (0000ms, 0777ms total)
T4678 001:637 JLINK_WriteReg(R3, 0x00000000)  returns 0x00 (0000ms, 0777ms total)
T4678 001:637 JLINK_WriteReg(R4, 0x00000000)  returns 0x00 (0000ms, 0777ms total)
T4678 001:637 JLINK_WriteReg(R5, 0x00000000)  returns 0x00 (0000ms, 0777ms total)
T4678 001:637 JLINK_WriteReg(R6, 0x00000000)  returns 0x00 (0000ms, 0777ms total)
